
T2BAC 000:433 SEGGER J-Link V4.80g Log File (0001ms, 0275ms total)
T2BAC 000:433 DLL Compiled: Feb 13 2014 20:50:02 (0001ms, 0275ms total)
T2BAC 000:433 Logging started @ 2018-08-23 16:58 (0001ms, 0275ms total)
T2BAC 000:435 JLINK_SetWarnOutHandler(...) (0000ms, 0275ms total)
T2BAC 000:435 JLINK_OpenEx(...)
Firmware: J-Link ARM V8 compiled Nov 28 2014 13:44:46
Hardware: V8.00
S/N: 17935099
Feature(s): RDI,FlashDL,FlashBP,JFlash  returns O.K. (0276ms, 0551ms total)
T2BAC 000:711 JLINK_SetErrorOutHandler(...) (0000ms, 0551ms total)
T2BAC 000:711 JLINK_ExecCommand("ProjectFile = "H:\project\stm32\实验0-1 Template工程模板-新建工程章节使用\USER\JLinkSettings.ini"", ...)  returns 0x00 (0000ms, 0551ms total)
T2BAC 000:711 JLINK_ExecCommand("Device = STM32F103ZE", ...)Device "STM32F103ZE" selected (512 KB flash, 64 KB RAM).  returns 0x00 (0001ms, 0552ms total)
T2BAC 000:712 JLINK_ExecCommand("DisableConnectionTimeout", ...)  returns 0x01 (0000ms, 0552ms total)
T2BAC 000:712 JLINK_GetHardwareVersion()  returns 0x13880 (0000ms, 0552ms total)
T2BAC 000:712 JLINK_GetDLLVersion()  returns 48007 (0000ms, 0552ms total)
T2BAC 000:712 JLINK_GetFirmwareString(...) (0000ms, 0552ms total)
T2BAC 000:712 JLINK_GetDLLVersion()  returns 48007 (0000ms, 0552ms total)
T2BAC 000:712 JLINK_GetCompileDateTime() (0000ms, 0552ms total)
T2BAC 000:712 JLINK_GetFirmwareString(...) (0000ms, 0552ms total)
T2BAC 000:712 JLINK_GetHardwareVersion()  returns 0x13880 (0000ms, 0552ms total)
T2BAC 000:712 JLINK_TIF_Select(JLINKARM_TIF_SWD)  returns 0x00 (0001ms, 0553ms total)
T2BAC 000:713 JLINK_SetSpeed(10000) (0000ms, 0553ms total)
T2BAC 000:713 JLINK_GetId() >0x108 TIF>Found SWD-DP with ID 0x1BA01477 >0x0D TIF> >0x28 TIF> >0x0D TIF> >0x28 TIF> >0x0D TIF> >0x21 TIF> >0x0D TIF> >0x28 TIF> >0x0D TIF> >0x28 TIF> >0x0D TIF> >0x28 TIF> >0x0D TIF> >0x21 TIF> >0x0D TIF> >0x21 TIF> >0x0D TIF> >0x28 TIF> >0x0D TIF> >0x21 TIF> >0x0D TIF> >0x21 TIF> >0x108 TIF>Found SWD-DP with ID 0x1BA01477 >0x0D TIF> >0x21 TIF> >0x0D TIF> >0x28 TIF> >0x0D TIF> >0x28 TIF> >0x0D TIF> >0x21 TIF> >0x0D TIF> >0x28 TIF> >0x0D TIF> >0x21 TIF> >0x0D TIF> >0x21 TIF>
 >0x0D TIF> >0x21 TIF> >0x0D TIF> >0x21 TIF> >0x0D TIF> >0x28 TIF> >0x0D TIF> >0x28 TIF> >0x0D TIF> >0x21 TIF> >0x0D TIF> >0x28 TIF> >0x0D TIF> >0x28 TIF> >0x0D TIF> >0x28 TIF> >0x0D TIF> >0x21 TIF> >0x0D TIF> >0x21 TIF> >0x0D TIF> >0x28 TIF> >0x0D TIF> >0x21 TIF> >0x0D TIF> >0x21 TIF>Found Cortex-M3 r1p1, Little endian. -- CPU_WriteMem(4 bytes @ 0xE0002000) -- CPU_ReadMem(4 bytes @ 0xE000EDF0) -- CPU_ReadMem(4 bytes @ 0xE0002000)FPUnit: 6 code (BP) slots and 2 literal slots
 -- CPU_ReadMem(4 bytes @ 0xE000EDFC) -- CPU_ReadMem(4 bytes @ 0xE0001000) -- CPU_WriteMem(4 bytes @ 0xE0001000) -- CPU_ReadMem(4 bytes @ 0xE00FF010)TPIU fitted. -- CPU_ReadMem(4 bytes @ 0xE00FF014)ETM fitted. -- CPU_ReadMem(4 bytes @ 0xE00FF018) >0x0D TIF> >0x21 TIF>  returns 0x1BA01477 (0025ms, 0578ms total)
T2BAC 000:738 JLINK_GetDeviceFamily()  returns 3 (0000ms, 0578ms total)
T2BAC 000:738 JLINK_ReadMem (0xE00FFFF0, 0x0010 Bytes, ...) -- CPU is running -- CPU_ReadMem(16 bytes @ 0xE00FFFF0) -- Data:  0D 00 00 00 10 00 00 00 05 00 00 00 B1 00 00 00  returns 0x00 (0000ms, 0578ms total)
T2BAC 000:738 JLINK_ReadMem (0xE00FFFD0, 0x0020 Bytes, ...) -- CPU is running -- CPU_ReadMem(32 bytes @ 0xE00FFFD0) -- Data:  00 00 00 00 00 00 00 00 00 00 00 00 00 00 00 00 ...  returns 0x00 (0001ms, 0579ms total)
T2BAC 000:739 JLINK_ReadMem (0xE00FF000, 0x0018 Bytes, ...) -- CPU is running -- CPU_ReadMem(24 bytes @ 0xE00FF000) -- Data:  03 F0 F0 FF 03 20 F0 FF 03 30 F0 FF 03 10 F0 FF ...  returns 0x00 (0001ms, 0580ms total)
T2BAC 000:740 JLINK_ReadMemU32(0xE000ED00, 0x0001 Items, ...) -- CPU is running -- CPU_ReadMem(4 bytes @ 0xE000ED00) -- Data:  31 C2 1F 41  returns 0x01 (0000ms, 0580ms total)
T2BAC 000:740 JLINK_SetResetType(JLINKARM_RESET_TYPE_NORMAL)  returns JLINKARM_RESET_TYPE_NORMAL (0000ms, 0580ms total)
T2BAC 000:740 JLINK_Reset() -- CPU is running -- CPU_WriteMem(4 bytes @ 0xE000EDF0) -- CPU is running -- CPU_WriteMem(4 bytes @ 0xE000EDFC) >0x35 TIF> -- CPU is running -- CPU_WriteMem(4 bytes @ 0xE000ED0C) -- CPU is running -- CPU_ReadMem(4 bytes @ 0xE000EDF0) -- CPU is running -- CPU_ReadMem(4 bytes @ 0xE000EDF0) -- CPU is running -- CPU_WriteMem(4 bytes @ 0xE000EDF0) -- CPU is running -- CPU_WriteMem(4 bytes @ 0xE000EDFC) -- CPU is running -- CPU_ReadMem(4 bytes @ 0xE000EDF0)
 -- CPU_WriteMem(4 bytes @ 0xE0002000) -- CPU_ReadMem(4 bytes @ 0xE000EDFC) -- CPU_ReadMem(4 bytes @ 0xE0001000) (0019ms, 0599ms total)
T2BAC 000:759 JLINK_ReadReg(R15 (PC))  returns 0x080001CC (0000ms, 0599ms total)
T2BAC 000:759 JLINK_ReadReg(XPSR)  returns 0x01000000 (0000ms, 0599ms total)
T2BAC 000:759 JLINK_Halt()  returns 0x00 (0000ms, 0599ms total)
T2BAC 000:759 JLINK_IsHalted()  returns TRUE (0000ms, 0599ms total)
T2BAC 000:759 JLINK_ReadMemU32(0xE000EDF0, 0x0001 Items, ...) -- CPU_ReadMem(4 bytes @ 0xE000EDF0) -- Data:  03 00 03 00  returns 0x01 (0000ms, 0599ms total)
T2BAC 000:759 JLINK_WriteU32(0xE000EDF0, 0xA05F0003) -- CPU_WriteMem(4 bytes @ 0xE000EDF0)  returns 0x00 (0001ms, 0600ms total)
T2BAC 000:760 JLINK_WriteU32(0xE000EDFC, 0x01000000) -- CPU_WriteMem(4 bytes @ 0xE000EDFC)  returns 0x00 (0000ms, 0600ms total)
T2BAC 000:761 JLINK_GetHWStatus(...)  returns 0x00 (0000ms, 0600ms total)
T2BAC 000:761 JLINK_GetNumBPUnits(Type = 0xFFFFFF00)  returns 0x06 (0000ms, 0600ms total)
T2BAC 000:761 JLINK_GetNumBPUnits(Type = 0xF0)  returns 0x2000 (0000ms, 0600ms total)
T2BAC 000:761 JLINK_GetNumWPUnits()  returns 0x04 (0000ms, 0600ms total)
T2BAC 000:761 JLINK_GetSpeed()  returns 0xFA0 (0000ms, 0600ms total)
T2BAC 000:761 JLINK_ReadMemU32(0xE000E004, 0x0001 Items, ...) -- CPU_ReadMem(4 bytes @ 0xE000E004) -- Data:  01 00 00 00  returns 0x01 (0001ms, 0601ms total)
T2BAC 000:762 JLINK_ReadMemU32(0xE000E004, 0x0001 Items, ...) -- CPU_ReadMem(4 bytes @ 0xE000E004) -- Data:  01 00 00 00  returns 0x01 (0000ms, 0601ms total)
T2BAC 000:762 JLINK_WriteMem(0xE0001000, 0x001C Bytes, ...) -- Data:  01 00 00 00 00 00 00 00 00 00 00 00 00 00 00 00 ... -- CPU_WriteMem(28 bytes @ 0xE0001000)  returns 0x1C (0001ms, 0602ms total)
T2BAC 000:763 JLINK_ReadMem (0xE0001000, 0x001C Bytes, ...) -- CPU_ReadMem(28 bytes @ 0xE0001000) -- Data:  01 00 00 40 00 00 00 00 00 00 00 00 00 00 00 00 ...  returns 0x00 (0000ms, 0602ms total)
T2BAC 000:763 JLINK_ReadReg(R15 (PC))  returns 0x080001CC (0000ms, 0602ms total)
T2BAC 000:763 JLINK_ReadReg(XPSR)  returns 0x01000000 (0000ms, 0602ms total)
T2BAC 000:856 JLINK_SetResetType(JLINKARM_RESET_TYPE_NORMAL)  returns JLINKARM_RESET_TYPE_NORMAL (0000ms, 0602ms total)
T2BAC 000:856 JLINK_Reset() -- CPU_WriteMem(4 bytes @ 0xE000EDF0) -- CPU_WriteMem(4 bytes @ 0xE000EDFC) >0x35 TIF> -- CPU_WriteMem(4 bytes @ 0xE000ED0C) -- CPU_ReadMem(4 bytes @ 0xE000EDF0) -- CPU_ReadMem(4 bytes @ 0xE000EDF0) -- CPU_WriteMem(4 bytes @ 0xE000EDF0) -- CPU_WriteMem(4 bytes @ 0xE000EDFC) -- CPU is running -- CPU_ReadMem(4 bytes @ 0xE000EDF0) -- CPU_WriteMem(4 bytes @ 0xE0002000) -- CPU_ReadMem(4 bytes @ 0xE000EDFC) -- CPU_ReadMem(4 bytes @ 0xE0001000) (0020ms, 0622ms total)
T2BAC 000:876 JLINK_ReadReg(R15 (PC))  returns 0x080001CC (0001ms, 0623ms total)
T2BAC 000:877 JLINK_ReadReg(XPSR)  returns 0x01000000 (0000ms, 0623ms total)
T2BAC 000:877 JLINK_ReadMemU32(0xE0001004, 0x0001 Items, ...) -- CPU_ReadMem(4 bytes @ 0xE0001004) -- Data:  9E 09 00 00  returns 0x01 (0000ms, 0623ms total)
T2BAC 000:983 JLINK_ReadMem (0x080001CC, 0x003C Bytes, ...) -- CPU_ReadMem(128 bytes @ 0x080001C0) -- Updating C cache (128 bytes @ 0x080001C0) -- Read from C cache (60 bytes @ 0x080001CC) -- Data:  09 48 80 47 09 48 00 47 FE E7 FE E7 FE E7 FE E7 ...  returns 0x00 (0001ms, 0624ms total)
T3A20 001:878 JLINK_SetBPEx(Addr = 0x08000610, Type = 0xFFFFFFF2)  returns 0x00000001 (0000ms, 0624ms total)
T3A20 001:878 JLINK_Go() -- CPU_WriteMem(4 bytes @ 0xE0002000) -- CPU_WriteMem(4 bytes @ 0xE0002008) -- CPU_WriteMem(4 bytes @ 0xE000200C) -- CPU_WriteMem(4 bytes @ 0xE0002010) -- CPU_WriteMem(4 bytes @ 0xE0002014) -- CPU_WriteMem(4 bytes @ 0xE0002018) -- CPU_WriteMem(4 bytes @ 0xE000201C) -- CPU_WriteMem(4 bytes @ 0xE0001004) (0005ms, 0629ms total)
T3A20 001:984 JLINK_IsHalted()  returns TRUE (0002ms, 0631ms total)
T3A20 001:986 JLINK_Halt()  returns 0x00 (0000ms, 0629ms total)
T3A20 001:986 JLINK_IsHalted()  returns TRUE (0000ms, 0629ms total)
T3A20 001:986 JLINK_IsHalted()  returns TRUE (0000ms, 0629ms total)
T3A20 001:986 JLINK_IsHalted()  returns TRUE (0000ms, 0629ms total)
T3A20 001:986 JLINK_ReadReg(R15 (PC))  returns 0x08000610 (0000ms, 0629ms total)
T3A20 001:986 JLINK_ReadReg(XPSR)  returns 0x21000000 (0000ms, 0629ms total)
T3A20 001:986 JLINK_ClrBPEx(BPHandle = 0x00000001)  returns 0x00 (0000ms, 0629ms total)
T3A20 001:986 JLINK_ReadMemU32(0xE000ED30, 0x0001 Items, ...) -- CPU_ReadMem(4 bytes @ 0xE000ED30) -- Data:  03 00 00 00  returns 0x01 (0000ms, 0629ms total)
T3A20 001:986 JLINK_ReadMemU32(0xE0001028, 0x0001 Items, ...) -- CPU_ReadMem(4 bytes @ 0xE0001028) -- Data:  00 00 00 00  returns 0x01 (0001ms, 0630ms total)
T3A20 001:987 JLINK_ReadMemU32(0xE0001038, 0x0001 Items, ...) -- CPU_ReadMem(4 bytes @ 0xE0001038) -- Data:  00 02 00 00  returns 0x01 (0000ms, 0630ms total)
T3A20 001:987 JLINK_ReadMemU32(0xE0001048, 0x0001 Items, ...) -- CPU_ReadMem(4 bytes @ 0xE0001048) -- Data:  00 00 00 00  returns 0x01 (0001ms, 0631ms total)
T3A20 001:988 JLINK_ReadMemU32(0xE0001058, 0x0001 Items, ...) -- CPU_ReadMem(4 bytes @ 0xE0001058) -- Data:  00 00 00 00  returns 0x01 (0000ms, 0631ms total)
T3A20 001:988 JLINK_ReadReg(R0)  returns 0x20000130 (0000ms, 0631ms total)
T3A20 001:988 JLINK_ReadReg(R1)  returns 0x20000330 (0000ms, 0631ms total)
T3A20 001:988 JLINK_ReadReg(R2)  returns 0x20000330 (0000ms, 0631ms total)
T3A20 001:988 JLINK_ReadReg(R3)  returns 0x20000330 (0000ms, 0631ms total)
T3A20 001:988 JLINK_ReadReg(R4)  returns 0x00000000 (0000ms, 0631ms total)
T3A20 001:988 JLINK_ReadReg(R5)  returns 0x200000D0 (0000ms, 0631ms total)
T3A20 001:988 JLINK_ReadReg(R6)  returns 0x00000000 (0000ms, 0631ms total)
T3A20 001:988 JLINK_ReadReg(R7)  returns 0x00000000 (0000ms, 0631ms total)
T3A20 001:988 JLINK_ReadReg(R8)  returns 0x00000000 (0000ms, 0631ms total)
T3A20 001:988 JLINK_ReadReg(R9)  returns 0x20000160 (0000ms, 0631ms total)
T3A20 001:988 JLINK_ReadReg(R10)  returns 0x080006B0 (0000ms, 0631ms total)
T3A20 001:988 JLINK_ReadReg(R11)  returns 0x00000000 (0000ms, 0631ms total)
T3A20 001:988 JLINK_ReadReg(R12)  returns 0x20000110 (0000ms, 0631ms total)
T3A20 001:988 JLINK_ReadReg(R13 (SP))  returns 0x20000730 (0000ms, 0631ms total)
T3A20 001:988 JLINK_ReadReg(R14)  returns 0x080001BB (0000ms, 0631ms total)
T3A20 001:988 JLINK_ReadReg(R15 (PC))  returns 0x08000610 (0000ms, 0631ms total)
T3A20 001:988 JLINK_ReadReg(XPSR)  returns 0x21000000 (0000ms, 0631ms total)
T3A20 001:988 JLINK_ReadReg(MSP)  returns 0x20000730 (0000ms, 0631ms total)
T3A20 001:988 JLINK_ReadReg(PSP)  returns 0x20001000 (0000ms, 0631ms total)
T3A20 001:988 JLINK_ReadReg(CFBP)  returns 0x00000000 (0000ms, 0631ms total)
T2BAC 001:993 JLINK_ReadMemU32(0xE0001004, 0x0001 Items, ...) -- CPU_ReadMem(4 bytes @ 0xE0001004) -- Data:  3E 1C 00 00  returns 0x01 (0000ms, 0631ms total)
T2BAC 001:996 JLINK_ReadMem (0x08000610, 0x003C Bytes, ...) -- CPU_ReadMem(128 bytes @ 0x08000600) -- Updating C cache (128 bytes @ 0x08000600) -- Read from C cache (60 bytes @ 0x08000610) -- Data:  08 B5 01 21 48 20 FF F7 CB FE 20 20 AD F8 00 00 ...  returns 0x00 (0001ms, 0632ms total)
T3A20 014:882 JLINK_Step() -- Read from C cache (2 bytes @ 0x08000610) -- CPU_WriteMem(8 bytes @ 0x20000728) -- Simulated  returns 0x00 (0001ms, 0633ms total)
T3A20 014:883 JLINK_ReadReg(R15 (PC))  returns 0x08000612 (0000ms, 0633ms total)
T3A20 014:883 JLINK_ReadReg(XPSR)  returns 0x21000000 (0000ms, 0633ms total)
T3A20 014:883 JLINK_ReadReg(R0)  returns 0x20000130 (0000ms, 0633ms total)
T3A20 014:883 JLINK_ReadReg(R1)  returns 0x20000330 (0000ms, 0633ms total)
T3A20 014:883 JLINK_ReadReg(R2)  returns 0x20000330 (0000ms, 0633ms total)
T3A20 014:883 JLINK_ReadReg(R3)  returns 0x20000330 (0000ms, 0633ms total)
T3A20 014:883 JLINK_ReadReg(R4)  returns 0x00000000 (0000ms, 0633ms total)
T3A20 014:883 JLINK_ReadReg(R5)  returns 0x200000D0 (0000ms, 0633ms total)
T3A20 014:883 JLINK_ReadReg(R6)  returns 0x00000000 (0000ms, 0633ms total)
T3A20 014:883 JLINK_ReadReg(R7)  returns 0x00000000 (0000ms, 0633ms total)
T3A20 014:883 JLINK_ReadReg(R8)  returns 0x00000000 (0000ms, 0633ms total)
T3A20 014:883 JLINK_ReadReg(R9)  returns 0x20000160 (0000ms, 0633ms total)
T3A20 014:883 JLINK_ReadReg(R10)  returns 0x080006B0 (0000ms, 0633ms total)
T3A20 014:883 JLINK_ReadReg(R11)  returns 0x00000000 (0000ms, 0633ms total)
T3A20 014:883 JLINK_ReadReg(R12)  returns 0x20000110 (0000ms, 0633ms total)
T3A20 014:883 JLINK_ReadReg(R13 (SP))  returns 0x20000728 (0000ms, 0633ms total)
T3A20 014:883 JLINK_ReadReg(R14)  returns 0x080001BB (0000ms, 0633ms total)
T3A20 014:883 JLINK_ReadReg(R15 (PC))  returns 0x08000612 (0000ms, 0633ms total)
T3A20 014:883 JLINK_ReadReg(XPSR)  returns 0x21000000 (0000ms, 0633ms total)
T3A20 014:883 JLINK_ReadReg(MSP)  returns 0x20000728 (0000ms, 0633ms total)
T3A20 014:883 JLINK_ReadReg(PSP)  returns 0x20001000 (0000ms, 0633ms total)
T3A20 014:883 JLINK_ReadReg(CFBP)  returns 0x00000000 (0000ms, 0633ms total)
T2BAC 014:885 JLINK_ReadMem (0x2000072C, 0x0004 Bytes, ...) -- CPU_ReadMem(64 bytes @ 0x20000700) -- Updating C cache (64 bytes @ 0x20000700) -- Read from C cache (4 bytes @ 0x2000072C) -- Data:  BB 01 00 08  returns 0x00 (0001ms, 0634ms total)
T2BAC 014:886 JLINK_ReadMemU32(0xE0001004, 0x0001 Items, ...) -- Data:  3E 1C 00 00  returns 0x01 (0000ms, 0634ms total)
T2BAC 014:889 JLINK_ReadMem (0x08000612, 0x0002 Bytes, ...) -- Read from C cache (2 bytes @ 0x08000612) -- Data:  01 21  returns 0x00 (0000ms, 0634ms total)
T2BAC 014:889 JLINK_ReadMem (0x08000614, 0x003C Bytes, ...) -- Read from C cache (60 bytes @ 0x08000614) -- Data:  48 20 FF F7 CB FE 20 20 AD F8 00 00 10 20 8D F8 ...  returns 0x00 (0000ms, 0634ms total)
T3A20 025:389 JLINK_Step() -- Read from C cache (2 bytes @ 0x08000612) -- Simulated  returns 0x00 (0001ms, 0635ms total)
T3A20 025:390 JLINK_ReadReg(R15 (PC))  returns 0x08000614 (0000ms, 0635ms total)
T3A20 025:390 JLINK_ReadReg(XPSR)  returns 0x21000000 (0000ms, 0635ms total)
T3A20 025:390 JLINK_Step() -- Read from C cache (2 bytes @ 0x08000614) -- Simulated  returns 0x00 (0000ms, 0635ms total)
T3A20 025:390 JLINK_ReadReg(R15 (PC))  returns 0x08000616 (0000ms, 0635ms total)
T3A20 025:390 JLINK_ReadReg(XPSR)  returns 0x21000000 (0000ms, 0635ms total)
T3A20 025:390 JLINK_SetBPEx(Addr = 0x0800061A, Type = 0xFFFFFFF2)  returns 0x00000002 (0000ms, 0635ms total)
T3A20 025:390 JLINK_Go() -- CPU_WriteMem(4 bytes @ 0xE0002000) -- CPU_WriteMem(4 bytes @ 0xE0002008) -- CPU_WriteMem(4 bytes @ 0xE0001004) (0004ms, 0639ms total)
T3A20 025:495 JLINK_IsHalted()  returns TRUE (0003ms, 0642ms total)
T3A20 025:498 JLINK_Halt()  returns 0x00 (0000ms, 0639ms total)
T3A20 025:498 JLINK_IsHalted()  returns TRUE (0000ms, 0639ms total)
T3A20 025:498 JLINK_IsHalted()  returns TRUE (0000ms, 0639ms total)
T3A20 025:498 JLINK_IsHalted()  returns TRUE (0000ms, 0639ms total)
T3A20 025:498 JLINK_ReadReg(R15 (PC))  returns 0x0800061A (0000ms, 0639ms total)
T3A20 025:498 JLINK_ReadReg(XPSR)  returns 0x21000000 (0000ms, 0639ms total)
T3A20 025:498 JLINK_ClrBPEx(BPHandle = 0x00000002)  returns 0x00 (0000ms, 0639ms total)
T3A20 025:498 JLINK_ReadMemU32(0xE000ED30, 0x0001 Items, ...) -- CPU_ReadMem(4 bytes @ 0xE000ED30) -- Data:  03 00 00 00  returns 0x01 (0001ms, 0640ms total)
T3A20 025:499 JLINK_ReadMemU32(0xE0001028, 0x0001 Items, ...) -- CPU_ReadMem(4 bytes @ 0xE0001028) -- Data:  00 00 00 00  returns 0x01 (0000ms, 0640ms total)
T3A20 025:499 JLINK_ReadMemU32(0xE0001038, 0x0001 Items, ...) -- CPU_ReadMem(4 bytes @ 0xE0001038) -- Data:  00 02 00 00  returns 0x01 (0001ms, 0641ms total)
T3A20 025:500 JLINK_ReadMemU32(0xE0001048, 0x0001 Items, ...) -- CPU_ReadMem(4 bytes @ 0xE0001048) -- Data:  00 00 00 00  returns 0x01 (0001ms, 0642ms total)
T3A20 025:501 JLINK_ReadMemU32(0xE0001058, 0x0001 Items, ...) -- CPU_ReadMem(4 bytes @ 0xE0001058) -- Data:  00 00 00 00  returns 0x01 (0000ms, 0642ms total)
T3A20 025:501 JLINK_ReadReg(R0)  returns 0x00000048 (0000ms, 0642ms total)
T3A20 025:501 JLINK_ReadReg(R1)  returns 0x00000001 (0000ms, 0642ms total)
T3A20 025:501 JLINK_ReadReg(R2)  returns 0x00000048 (0000ms, 0642ms total)
T3A20 025:501 JLINK_ReadReg(R3)  returns 0x40021000 (0000ms, 0642ms total)
T3A20 025:501 JLINK_ReadReg(R4)  returns 0x00000000 (0000ms, 0642ms total)
T3A20 025:501 JLINK_ReadReg(R5)  returns 0x200000D0 (0000ms, 0642ms total)
T3A20 025:501 JLINK_ReadReg(R6)  returns 0x00000000 (0000ms, 0642ms total)
T3A20 025:501 JLINK_ReadReg(R7)  returns 0x00000000 (0000ms, 0642ms total)
T3A20 025:501 JLINK_ReadReg(R8)  returns 0x00000000 (0000ms, 0642ms total)
T3A20 025:501 JLINK_ReadReg(R9)  returns 0x20000160 (0000ms, 0642ms total)
T3A20 025:501 JLINK_ReadReg(R10)  returns 0x080006B0 (0000ms, 0642ms total)
T3A20 025:501 JLINK_ReadReg(R11)  returns 0x00000000 (0000ms, 0642ms total)
T3A20 025:501 JLINK_ReadReg(R12)  returns 0x20000110 (0000ms, 0642ms total)
T3A20 025:501 JLINK_ReadReg(R13 (SP))  returns 0x20000728 (0000ms, 0642ms total)
T3A20 025:501 JLINK_ReadReg(R14)  returns 0x0800061B (0000ms, 0642ms total)
T3A20 025:501 JLINK_ReadReg(R15 (PC))  returns 0x0800061A (0000ms, 0642ms total)
T3A20 025:501 JLINK_ReadReg(XPSR)  returns 0x21000000 (0000ms, 0642ms total)
T3A20 025:501 JLINK_ReadReg(MSP)  returns 0x20000728 (0000ms, 0642ms total)
T3A20 025:501 JLINK_ReadReg(PSP)  returns 0x20001000 (0000ms, 0642ms total)
T3A20 025:501 JLINK_ReadReg(CFBP)  returns 0x00000000 (0000ms, 0642ms total)
T2BAC 025:501 JLINK_ReadMem (0x2000072C, 0x0004 Bytes, ...) -- CPU_ReadMem(64 bytes @ 0x20000700) -- Updating C cache (64 bytes @ 0x20000700) -- Read from C cache (4 bytes @ 0x2000072C) -- Data:  BB 01 00 08  returns 0x00 (0002ms, 0644ms total)
T2BAC 025:503 JLINK_ReadMemU32(0xE0001004, 0x0001 Items, ...) -- CPU_ReadMem(4 bytes @ 0xE0001004) -- Data:  5F 1C 00 00  returns 0x01 (0000ms, 0644ms total)
T2BAC 025:507 JLINK_ReadMem (0x0800061A, 0x0002 Bytes, ...) -- CPU_ReadMem(64 bytes @ 0x08000600) -- Updating C cache (64 bytes @ 0x08000600) -- Read from C cache (2 bytes @ 0x0800061A) -- Data:  20 20  returns 0x00 (0001ms, 0645ms total)
T2BAC 025:508 JLINK_ReadMem (0x0800061C, 0x003C Bytes, ...) -- CPU_ReadMem(64 bytes @ 0x08000640) -- Updating C cache (64 bytes @ 0x08000640) -- Read from C cache (60 bytes @ 0x0800061C) -- Data:  AD F8 00 00 10 20 8D F8 03 00 03 20 8D F8 02 00 ...  returns 0x00 (0001ms, 0646ms total)
T3A20 028:215 JLINK_Step() -- Read from C cache (2 bytes @ 0x0800061A) -- Simulated  returns 0x00 (0001ms, 0647ms total)
T3A20 028:216 JLINK_ReadReg(R15 (PC))  returns 0x0800061C (0000ms, 0647ms total)
T3A20 028:216 JLINK_ReadReg(XPSR)  returns 0x21000000 (0000ms, 0647ms total)
T3A20 028:216 JLINK_Step() -- Read from C cache (2 bytes @ 0x0800061C) -- Read from C cache (2 bytes @ 0x0800061E) -- Not simulated -- CPU_WriteMem(4 bytes @ 0xE0002008) -- CPU_WriteMem(4 bytes @ 0xE0001004)  returns 0x00 (0003ms, 0650ms total)
T3A20 028:219 JLINK_ReadReg(R15 (PC))  returns 0x08000620 (0001ms, 0651ms total)
T3A20 028:220 JLINK_ReadReg(XPSR)  returns 0x21000000 (0000ms, 0651ms total)
T3A20 028:220 JLINK_ReadReg(R0)  returns 0x00000020 (0000ms, 0651ms total)
T3A20 028:220 JLINK_ReadReg(R1)  returns 0x00000001 (0000ms, 0651ms total)
T3A20 028:220 JLINK_ReadReg(R2)  returns 0x00000048 (0000ms, 0651ms total)
T3A20 028:220 JLINK_ReadReg(R3)  returns 0x40021000 (0000ms, 0651ms total)
T3A20 028:220 JLINK_ReadReg(R4)  returns 0x00000000 (0000ms, 0651ms total)
T3A20 028:220 JLINK_ReadReg(R5)  returns 0x200000D0 (0000ms, 0651ms total)
T3A20 028:220 JLINK_ReadReg(R6)  returns 0x00000000 (0000ms, 0651ms total)
T3A20 028:220 JLINK_ReadReg(R7)  returns 0x00000000 (0000ms, 0651ms total)
T3A20 028:220 JLINK_ReadReg(R8)  returns 0x00000000 (0000ms, 0651ms total)
T3A20 028:220 JLINK_ReadReg(R9)  returns 0x20000160 (0000ms, 0651ms total)
T3A20 028:220 JLINK_ReadReg(R10)  returns 0x080006B0 (0000ms, 0651ms total)
T3A20 028:220 JLINK_ReadReg(R11)  returns 0x00000000 (0000ms, 0651ms total)
T3A20 028:220 JLINK_ReadReg(R12)  returns 0x20000110 (0000ms, 0651ms total)
T3A20 028:220 JLINK_ReadReg(R13 (SP))  returns 0x20000728 (0000ms, 0651ms total)
T3A20 028:220 JLINK_ReadReg(R14)  returns 0x0800061B (0000ms, 0651ms total)
T3A20 028:220 JLINK_ReadReg(R15 (PC))  returns 0x08000620 (0000ms, 0651ms total)
T3A20 028:220 JLINK_ReadReg(XPSR)  returns 0x21000000 (0000ms, 0651ms total)
T3A20 028:220 JLINK_ReadReg(MSP)  returns 0x20000728 (0000ms, 0651ms total)
T3A20 028:220 JLINK_ReadReg(PSP)  returns 0x20001000 (0000ms, 0651ms total)
T3A20 028:220 JLINK_ReadReg(CFBP)  returns 0x00000000 (0000ms, 0651ms total)
T2BAC 028:220 JLINK_ReadMem (0x2000072C, 0x0004 Bytes, ...) -- CPU_ReadMem(64 bytes @ 0x20000700) -- Updating C cache (64 bytes @ 0x20000700) -- Read from C cache (4 bytes @ 0x2000072C) -- Data:  BB 01 00 08  returns 0x00 (0001ms, 0652ms total)
T2BAC 028:221 JLINK_ReadMemU32(0xE0001004, 0x0001 Items, ...) -- CPU_ReadMem(4 bytes @ 0xE0001004) -- Data:  61 1C 00 00  returns 0x01 (0000ms, 0652ms total)
T3A20 029:346 JLINK_ReadMem (0x08000620, 0x003C Bytes, ...) -- CPU_ReadMem(128 bytes @ 0x08000600) -- Updating C cache (128 bytes @ 0x08000600) -- Read from C cache (60 bytes @ 0x08000620) -- Data:  10 20 8D F8 03 00 03 20 8D F8 02 00 69 46 15 48 ...  returns 0x00 (0003ms, 0655ms total)
T3A20 029:349 JLINK_Step() -- Read from C cache (2 bytes @ 0x08000620) -- Simulated  returns 0x00 (0000ms, 0655ms total)
T3A20 029:349 JLINK_ReadReg(R15 (PC))  returns 0x08000622 (0001ms, 0656ms total)
T3A20 029:350 JLINK_ReadReg(XPSR)  returns 0x21000000 (0000ms, 0656ms total)
T3A20 029:350 JLINK_Step() -- Read from C cache (2 bytes @ 0x08000622) -- Read from C cache (2 bytes @ 0x08000624) -- Not simulated -- CPU_WriteMem(4 bytes @ 0xE0001004)  returns 0x00 (0005ms, 0661ms total)
T3A20 029:355 JLINK_ReadReg(R15 (PC))  returns 0x08000626 (0000ms, 0661ms total)
T3A20 029:355 JLINK_ReadReg(XPSR)  returns 0x21000000 (0000ms, 0661ms total)
T3A20 029:355 JLINK_ReadReg(R0)  returns 0x00000010 (0000ms, 0661ms total)
T3A20 029:355 JLINK_ReadReg(R1)  returns 0x00000001 (0000ms, 0661ms total)
T3A20 029:355 JLINK_ReadReg(R2)  returns 0x00000048 (0000ms, 0661ms total)
T3A20 029:355 JLINK_ReadReg(R3)  returns 0x40021000 (0000ms, 0661ms total)
T3A20 029:355 JLINK_ReadReg(R4)  returns 0x00000000 (0000ms, 0661ms total)
T3A20 029:355 JLINK_ReadReg(R5)  returns 0x200000D0 (0000ms, 0661ms total)
T3A20 029:355 JLINK_ReadReg(R6)  returns 0x00000000 (0000ms, 0661ms total)
T3A20 029:355 JLINK_ReadReg(R7)  returns 0x00000000 (0000ms, 0661ms total)
T3A20 029:355 JLINK_ReadReg(R8)  returns 0x00000000 (0000ms, 0661ms total)
T3A20 029:355 JLINK_ReadReg(R9)  returns 0x20000160 (0001ms, 0662ms total)
T3A20 029:356 JLINK_ReadReg(R10)  returns 0x080006B0 (0000ms, 0662ms total)
T3A20 029:356 JLINK_ReadReg(R11)  returns 0x00000000 (0000ms, 0662ms total)
T3A20 029:356 JLINK_ReadReg(R12)  returns 0x20000110 (0000ms, 0662ms total)
T3A20 029:356 JLINK_ReadReg(R13 (SP))  returns 0x20000728 (0000ms, 0662ms total)
T3A20 029:356 JLINK_ReadReg(R14)  returns 0x0800061B (0000ms, 0662ms total)
T3A20 029:356 JLINK_ReadReg(R15 (PC))  returns 0x08000626 (0000ms, 0662ms total)
T3A20 029:356 JLINK_ReadReg(XPSR)  returns 0x21000000 (0000ms, 0662ms total)
T3A20 029:356 JLINK_ReadReg(MSP)  returns 0x20000728 (0000ms, 0662ms total)
T3A20 029:356 JLINK_ReadReg(PSP)  returns 0x20001000 (0000ms, 0662ms total)
T3A20 029:356 JLINK_ReadReg(CFBP)  returns 0x00000000 (0000ms, 0662ms total)
T2BAC 029:361 JLINK_ReadMem (0x2000072C, 0x0004 Bytes, ...) -- CPU_ReadMem(64 bytes @ 0x20000700) -- Updating C cache (64 bytes @ 0x20000700) -- Read from C cache (4 bytes @ 0x2000072C) -- Data:  BB 01 00 08  returns 0x00 (0002ms, 0664ms total)
T2BAC 029:363 JLINK_ReadMemU32(0xE0001004, 0x0001 Items, ...) -- CPU_ReadMem(4 bytes @ 0xE0001004) -- Data:  63 1C 00 00  returns 0x01 (0001ms, 0665ms total)
T2BAC 029:372 JLINK_ReadMem (0x08000626, 0x0002 Bytes, ...) -- CPU_ReadMem(64 bytes @ 0x08000600) -- Updating C cache (64 bytes @ 0x08000600) -- Read from C cache (2 bytes @ 0x08000626) -- Data:  03 20  returns 0x00 (0001ms, 0666ms total)
T2BAC 029:373 JLINK_ReadMem (0x08000628, 0x003C Bytes, ...) -- CPU_ReadMem(64 bytes @ 0x08000640) -- Updating C cache (64 bytes @ 0x08000640) -- Read from C cache (60 bytes @ 0x08000628) -- Data:  8D F8 02 00 69 46 15 48 FF F7 29 FE 20 21 13 48 ...  returns 0x00 (0001ms, 0667ms total)
T3A20 030:467 JLINK_Step() -- Read from C cache (2 bytes @ 0x08000626) -- Simulated  returns 0x00 (0001ms, 0668ms total)
T3A20 030:468 JLINK_ReadReg(R15 (PC))  returns 0x08000628 (0000ms, 0668ms total)
T3A20 030:468 JLINK_ReadReg(XPSR)  returns 0x21000000 (0000ms, 0668ms total)
T3A20 030:468 JLINK_Step() -- Read from C cache (2 bytes @ 0x08000628) -- Read from C cache (2 bytes @ 0x0800062A) -- Not simulated -- CPU_WriteMem(4 bytes @ 0xE0001004)  returns 0x00 (0004ms, 0672ms total)
T3A20 030:472 JLINK_ReadReg(R15 (PC))  returns 0x0800062C (0000ms, 0672ms total)
T3A20 030:472 JLINK_ReadReg(XPSR)  returns 0x21000000 (0000ms, 0672ms total)
T3A20 030:472 JLINK_ReadReg(R0)  returns 0x00000003 (0000ms, 0672ms total)
T3A20 030:472 JLINK_ReadReg(R1)  returns 0x00000001 (0000ms, 0672ms total)
T3A20 030:472 JLINK_ReadReg(R2)  returns 0x00000048 (0000ms, 0672ms total)
T3A20 030:472 JLINK_ReadReg(R3)  returns 0x40021000 (0000ms, 0672ms total)
T3A20 030:472 JLINK_ReadReg(R4)  returns 0x00000000 (0000ms, 0672ms total)
T3A20 030:472 JLINK_ReadReg(R5)  returns 0x200000D0 (0000ms, 0672ms total)
T3A20 030:472 JLINK_ReadReg(R6)  returns 0x00000000 (0000ms, 0672ms total)
T3A20 030:472 JLINK_ReadReg(R7)  returns 0x00000000 (0000ms, 0672ms total)
T3A20 030:472 JLINK_ReadReg(R8)  returns 0x00000000 (0000ms, 0672ms total)
T3A20 030:472 JLINK_ReadReg(R9)  returns 0x20000160 (0000ms, 0672ms total)
T3A20 030:472 JLINK_ReadReg(R10)  returns 0x080006B0 (0000ms, 0672ms total)
T3A20 030:472 JLINK_ReadReg(R11)  returns 0x00000000 (0000ms, 0672ms total)
T3A20 030:472 JLINK_ReadReg(R12)  returns 0x20000110 (0000ms, 0672ms total)
T3A20 030:472 JLINK_ReadReg(R13 (SP))  returns 0x20000728 (0000ms, 0672ms total)
T3A20 030:472 JLINK_ReadReg(R14)  returns 0x0800061B (0000ms, 0672ms total)
T3A20 030:472 JLINK_ReadReg(R15 (PC))  returns 0x0800062C (0000ms, 0672ms total)
T3A20 030:472 JLINK_ReadReg(XPSR)  returns 0x21000000 (0000ms, 0672ms total)
T3A20 030:472 JLINK_ReadReg(MSP)  returns 0x20000728 (0000ms, 0672ms total)
T3A20 030:472 JLINK_ReadReg(PSP)  returns 0x20001000 (0000ms, 0672ms total)
T3A20 030:472 JLINK_ReadReg(CFBP)  returns 0x00000000 (0000ms, 0672ms total)
T2BAC 030:472 JLINK_ReadMem (0x2000072C, 0x0004 Bytes, ...) -- CPU_ReadMem(64 bytes @ 0x20000700) -- Updating C cache (64 bytes @ 0x20000700) -- Read from C cache (4 bytes @ 0x2000072C) -- Data:  BB 01 00 08  returns 0x00 (0001ms, 0673ms total)
T2BAC 030:473 JLINK_ReadMemU32(0xE0001004, 0x0001 Items, ...) -- CPU_ReadMem(4 bytes @ 0xE0001004) -- Data:  65 1C 00 00  returns 0x01 (0001ms, 0674ms total)
T3A20 031:721 JLINK_ReadMem (0x0800062C, 0x003C Bytes, ...) -- CPU_ReadMem(128 bytes @ 0x08000600) -- Updating C cache (128 bytes @ 0x08000600) -- Read from C cache (60 bytes @ 0x0800062C) -- Data:  69 46 15 48 FF F7 29 FE 20 21 13 48 FF F7 B2 FE ...  returns 0x00 (0002ms, 0676ms total)
T3A20 031:723 JLINK_Step() -- Read from C cache (2 bytes @ 0x0800062C) -- Simulated  returns 0x00 (0001ms, 0677ms total)
T3A20 031:724 JLINK_ReadReg(R15 (PC))  returns 0x0800062E (0000ms, 0677ms total)
T3A20 031:724 JLINK_ReadReg(XPSR)  returns 0x21000000 (0000ms, 0677ms total)
T3A20 031:724 JLINK_Step() -- Read from C cache (2 bytes @ 0x0800062E) -- CPU_ReadMem(64 bytes @ 0x08000680) -- Updating C cache (64 bytes @ 0x08000680) -- Read from C cache (4 bytes @ 0x08000684) -- Simulated  returns 0x00 (0001ms, 0678ms total)
T3A20 031:725 JLINK_ReadReg(R15 (PC))  returns 0x08000630 (0000ms, 0678ms total)
T3A20 031:725 JLINK_ReadReg(XPSR)  returns 0x21000000 (0000ms, 0678ms total)
T3A20 031:726 JLINK_SetBPEx(Addr = 0x08000634, Type = 0xFFFFFFF2)  returns 0x00000003 (0000ms, 0678ms total)
T3A20 031:726 JLINK_Go() -- CPU_WriteMem(4 bytes @ 0xE0002000) -- CPU_WriteMem(4 bytes @ 0xE0002008) -- CPU_WriteMem(4 bytes @ 0xE0001004) (0003ms, 0681ms total)
T3A20 031:830 JLINK_IsHalted()  returns TRUE (0003ms, 0684ms total)
T3A20 031:833 JLINK_Halt()  returns 0x00 (0000ms, 0681ms total)
T3A20 031:833 JLINK_IsHalted()  returns TRUE (0000ms, 0681ms total)
T3A20 031:833 JLINK_IsHalted()  returns TRUE (0000ms, 0681ms total)
T3A20 031:833 JLINK_IsHalted()  returns TRUE (0000ms, 0681ms total)
T3A20 031:833 JLINK_ReadReg(R15 (PC))  returns 0x08000634 (0000ms, 0681ms total)
T3A20 031:833 JLINK_ReadReg(XPSR)  returns 0x81000000 (0000ms, 0681ms total)
T3A20 031:833 JLINK_ClrBPEx(BPHandle = 0x00000003)  returns 0x00 (0000ms, 0681ms total)
T3A20 031:833 JLINK_ReadMemU32(0xE000ED30, 0x0001 Items, ...) -- CPU_ReadMem(4 bytes @ 0xE000ED30) -- Data:  03 00 00 00  returns 0x01 (0001ms, 0682ms total)
T3A20 031:834 JLINK_ReadMemU32(0xE0001028, 0x0001 Items, ...) -- CPU_ReadMem(4 bytes @ 0xE0001028) -- Data:  00 00 00 00  returns 0x01 (0001ms, 0683ms total)
T3A20 031:835 JLINK_ReadMemU32(0xE0001038, 0x0001 Items, ...) -- CPU_ReadMem(4 bytes @ 0xE0001038) -- Data:  00 02 00 00  returns 0x01 (0001ms, 0684ms total)
T3A20 031:836 JLINK_ReadMemU32(0xE0001048, 0x0001 Items, ...) -- CPU_ReadMem(4 bytes @ 0xE0001048) -- Data:  00 00 00 00  returns 0x01 (0001ms, 0685ms total)
T3A20 031:837 JLINK_ReadMemU32(0xE0001058, 0x0001 Items, ...) -- CPU_ReadMem(4 bytes @ 0xE0001058) -- Data:  00 00 00 00  returns 0x01 (0001ms, 0686ms total)
T3A20 031:838 JLINK_ReadReg(R0)  returns 0x00000008 (0000ms, 0686ms total)
T3A20 031:838 JLINK_ReadReg(R1)  returns 0x20000728 (0000ms, 0686ms total)
T3A20 031:838 JLINK_ReadReg(R2)  returns 0x40010C00 (0000ms, 0686ms total)
T3A20 031:838 JLINK_ReadReg(R3)  returns 0x00000080 (0000ms, 0686ms total)
T3A20 031:838 JLINK_ReadReg(R4)  returns 0x00000000 (0000ms, 0686ms total)
T3A20 031:838 JLINK_ReadReg(R5)  returns 0x200000D0 (0000ms, 0686ms total)
T3A20 031:838 JLINK_ReadReg(R6)  returns 0x00000000 (0000ms, 0686ms total)
T3A20 031:838 JLINK_ReadReg(R7)  returns 0x00000000 (0000ms, 0686ms total)
T3A20 031:838 JLINK_ReadReg(R8)  returns 0x00000000 (0001ms, 0687ms total)
T3A20 031:839 JLINK_ReadReg(R9)  returns 0x20000160 (0000ms, 0687ms total)
T3A20 031:839 JLINK_ReadReg(R10)  returns 0x080006B0 (0000ms, 0687ms total)
T3A20 031:839 JLINK_ReadReg(R11)  returns 0x00000000 (0000ms, 0687ms total)
T3A20 031:839 JLINK_ReadReg(R12)  returns 0x00000020 (0000ms, 0687ms total)
T3A20 031:839 JLINK_ReadReg(R13 (SP))  returns 0x20000728 (0000ms, 0687ms total)
T3A20 031:839 JLINK_ReadReg(R14)  returns 0x08000635 (0000ms, 0687ms total)
T3A20 031:839 JLINK_ReadReg(R15 (PC))  returns 0x08000634 (0000ms, 0687ms total)
T3A20 031:839 JLINK_ReadReg(XPSR)  returns 0x81000000 (0000ms, 0687ms total)
T3A20 031:839 JLINK_ReadReg(MSP)  returns 0x20000728 (0000ms, 0687ms total)
T3A20 031:839 JLINK_ReadReg(PSP)  returns 0x20001000 (0000ms, 0687ms total)
T3A20 031:839 JLINK_ReadReg(CFBP)  returns 0x00000000 (0000ms, 0687ms total)
T2BAC 031:839 JLINK_ReadMem (0x2000072C, 0x0004 Bytes, ...) -- CPU_ReadMem(64 bytes @ 0x20000700) -- Updating C cache (64 bytes @ 0x20000700) -- Read from C cache (4 bytes @ 0x2000072C) -- Data:  BB 01 00 08  returns 0x00 (0002ms, 0689ms total)
T2BAC 031:841 JLINK_ReadMemU32(0xE0001004, 0x0001 Items, ...) -- CPU_ReadMem(4 bytes @ 0xE0001004) -- Data:  75 1D 00 00  returns 0x01 (0001ms, 0690ms total)
T2BAC 031:853 JLINK_ReadMem (0x08000634, 0x003C Bytes, ...) -- CPU_ReadMem(128 bytes @ 0x08000600) -- Updating C cache (128 bytes @ 0x08000600) -- Read from C cache (60 bytes @ 0x08000634) -- Data:  20 21 13 48 FF F7 B2 FE 20 20 AD F8 00 00 69 46 ...  returns 0x00 (0002ms, 0692ms total)
T3A20 039:351 JLINK_Step() -- Read from C cache (2 bytes @ 0x08000634) -- Simulated  returns 0x00 (0001ms, 0693ms total)
T3A20 039:352 JLINK_ReadReg(R15 (PC))  returns 0x08000636 (0000ms, 0693ms total)
T3A20 039:352 JLINK_ReadReg(XPSR)  returns 0x01000000 (0000ms, 0693ms total)
T3A20 039:352 JLINK_Step() -- Read from C cache (2 bytes @ 0x08000636) -- CPU_ReadMem(64 bytes @ 0x08000680) -- Updating C cache (64 bytes @ 0x08000680) -- Read from C cache (4 bytes @ 0x08000684) -- Simulated  returns 0x00 (0002ms, 0695ms total)
T3A20 039:354 JLINK_ReadReg(R15 (PC))  returns 0x08000638 (0000ms, 0695ms total)
T3A20 039:354 JLINK_ReadReg(XPSR)  returns 0x01000000 (0000ms, 0695ms total)
T3A20 039:354 JLINK_SetBPEx(Addr = 0x0800063C, Type = 0xFFFFFFF2)  returns 0x00000004 (0000ms, 0695ms total)
T3A20 039:354 JLINK_Go() -- CPU_WriteMem(4 bytes @ 0xE0002000) -- CPU_WriteMem(4 bytes @ 0xE0002008) -- CPU_WriteMem(4 bytes @ 0xE0001004) (0004ms, 0699ms total)
T3A20 039:459 JLINK_IsHalted()  returns TRUE (0003ms, 0702ms total)
T3A20 039:462 JLINK_Halt()  returns 0x00 (0000ms, 0699ms total)
T3A20 039:462 JLINK_IsHalted()  returns TRUE (0000ms, 0699ms total)
T3A20 039:462 JLINK_IsHalted()  returns TRUE (0000ms, 0699ms total)
T3A20 039:462 JLINK_IsHalted()  returns TRUE (0000ms, 0699ms total)
T3A20 039:462 JLINK_ReadReg(R15 (PC))  returns 0x0800063C (0000ms, 0699ms total)
T3A20 039:462 JLINK_ReadReg(XPSR)  returns 0x01000000 (0000ms, 0699ms total)
T3A20 039:462 JLINK_ClrBPEx(BPHandle = 0x00000004)  returns 0x00 (0000ms, 0699ms total)
T3A20 039:462 JLINK_ReadMemU32(0xE000ED30, 0x0001 Items, ...) -- CPU_ReadMem(4 bytes @ 0xE000ED30) -- Data:  03 00 00 00  returns 0x01 (0001ms, 0700ms total)
T3A20 039:463 JLINK_ReadMemU32(0xE0001028, 0x0001 Items, ...) -- CPU_ReadMem(4 bytes @ 0xE0001028) -- Data:  00 00 00 00  returns 0x01 (0001ms, 0701ms total)
T3A20 039:464 JLINK_ReadMemU32(0xE0001038, 0x0001 Items, ...) -- CPU_ReadMem(4 bytes @ 0xE0001038) -- Data:  00 02 00 00  returns 0x01 (0000ms, 0701ms total)
T3A20 039:464 JLINK_ReadMemU32(0xE0001048, 0x0001 Items, ...) -- CPU_ReadMem(4 bytes @ 0xE0001048) -- Data:  00 00 00 00  returns 0x01 (0001ms, 0702ms total)
T3A20 039:465 JLINK_ReadMemU32(0xE0001058, 0x0001 Items, ...) -- CPU_ReadMem(4 bytes @ 0xE0001058) -- Data:  00 00 00 00  returns 0x01 (0000ms, 0702ms total)
T3A20 039:466 JLINK_ReadReg(R0)  returns 0x40010C00 (0000ms, 0702ms total)
T3A20 039:466 JLINK_ReadReg(R1)  returns 0x00000020 (0000ms, 0702ms total)
T3A20 039:466 JLINK_ReadReg(R2)  returns 0x40010C00 (0000ms, 0702ms total)
T3A20 039:466 JLINK_ReadReg(R3)  returns 0x00000080 (0000ms, 0702ms total)
T3A20 039:466 JLINK_ReadReg(R4)  returns 0x00000000 (0000ms, 0702ms total)
T3A20 039:466 JLINK_ReadReg(R5)  returns 0x200000D0 (0000ms, 0702ms total)
T3A20 039:466 JLINK_ReadReg(R6)  returns 0x00000000 (0000ms, 0702ms total)
T3A20 039:466 JLINK_ReadReg(R7)  returns 0x00000000 (0000ms, 0702ms total)
T3A20 039:466 JLINK_ReadReg(R8)  returns 0x00000000 (0000ms, 0702ms total)
T3A20 039:466 JLINK_ReadReg(R9)  returns 0x20000160 (0000ms, 0702ms total)
T3A20 039:466 JLINK_ReadReg(R10)  returns 0x080006B0 (0000ms, 0702ms total)
T3A20 039:466 JLINK_ReadReg(R11)  returns 0x00000000 (0000ms, 0702ms total)
T3A20 039:466 JLINK_ReadReg(R12)  returns 0x00000020 (0000ms, 0702ms total)
T3A20 039:466 JLINK_ReadReg(R13 (SP))  returns 0x20000728 (0000ms, 0702ms total)
T3A20 039:466 JLINK_ReadReg(R14)  returns 0x0800063D (0000ms, 0702ms total)
T3A20 039:466 JLINK_ReadReg(R15 (PC))  returns 0x0800063C (0000ms, 0702ms total)
T3A20 039:466 JLINK_ReadReg(XPSR)  returns 0x01000000 (0000ms, 0702ms total)
T3A20 039:466 JLINK_ReadReg(MSP)  returns 0x20000728 (0000ms, 0702ms total)
T3A20 039:466 JLINK_ReadReg(PSP)  returns 0x20001000 (0000ms, 0702ms total)
T3A20 039:466 JLINK_ReadReg(CFBP)  returns 0x00000000 (0000ms, 0702ms total)
T2BAC 039:466 JLINK_ReadMem (0x2000072C, 0x0004 Bytes, ...) -- CPU_ReadMem(64 bytes @ 0x20000700) -- Updating C cache (64 bytes @ 0x20000700) -- Read from C cache (4 bytes @ 0x2000072C) -- Data:  BB 01 00 08  returns 0x00 (0001ms, 0703ms total)
T2BAC 039:467 JLINK_ReadMemU32(0xE0001004, 0x0001 Items, ...) -- CPU_ReadMem(4 bytes @ 0xE0001004) -- Data:  82 1D 00 00  returns 0x01 (0000ms, 0703ms total)
T2BAC 039:471 JLINK_ReadMem (0x0800063C, 0x003C Bytes, ...) -- CPU_ReadMem(128 bytes @ 0x08000600) -- Updating C cache (128 bytes @ 0x08000600) -- Read from C cache (60 bytes @ 0x0800063C) -- Data:  20 20 AD F8 00 00 69 46 10 48 FF F7 1E FE 20 21 ...  returns 0x00 (0001ms, 0704ms total)
T3A20 045:434 JLINK_Step() -- Read from C cache (2 bytes @ 0x0800063C) -- Simulated  returns 0x00 (0001ms, 0705ms total)
T3A20 045:435 JLINK_ReadReg(R15 (PC))  returns 0x0800063E (0000ms, 0705ms total)
T3A20 045:435 JLINK_ReadReg(XPSR)  returns 0x01000000 (0000ms, 0705ms total)
T3A20 045:435 JLINK_Step() -- Read from C cache (2 bytes @ 0x0800063E) -- Read from C cache (2 bytes @ 0x08000640) -- Not simulated -- CPU_WriteMem(4 bytes @ 0xE0002008) -- CPU_WriteMem(4 bytes @ 0xE0001004)  returns 0x00 (0006ms, 0711ms total)
T3A20 045:441 JLINK_ReadReg(R15 (PC))  returns 0x08000642 (0000ms, 0711ms total)
T3A20 045:441 JLINK_ReadReg(XPSR)  returns 0x01000000 (0000ms, 0711ms total)
T3A20 045:441 JLINK_ReadReg(R0)  returns 0x00000020 (0000ms, 0711ms total)
T3A20 045:441 JLINK_ReadReg(R1)  returns 0x00000020 (0000ms, 0711ms total)
T3A20 045:441 JLINK_ReadReg(R2)  returns 0x40010C00 (0000ms, 0711ms total)
T3A20 045:441 JLINK_ReadReg(R3)  returns 0x00000080 (0000ms, 0711ms total)
T3A20 045:441 JLINK_ReadReg(R4)  returns 0x00000000 (0000ms, 0711ms total)
T3A20 045:441 JLINK_ReadReg(R5)  returns 0x200000D0 (0000ms, 0711ms total)
T3A20 045:441 JLINK_ReadReg(R6)  returns 0x00000000 (0000ms, 0711ms total)
T3A20 045:441 JLINK_ReadReg(R7)  returns 0x00000000 (0000ms, 0711ms total)
T3A20 045:441 JLINK_ReadReg(R8)  returns 0x00000000 (0000ms, 0711ms total)
T3A20 045:441 JLINK_ReadReg(R9)  returns 0x20000160 (0000ms, 0711ms total)
T3A20 045:441 JLINK_ReadReg(R10)  returns 0x080006B0 (0000ms, 0711ms total)
T3A20 045:441 JLINK_ReadReg(R11)  returns 0x00000000 (0000ms, 0711ms total)
T3A20 045:441 JLINK_ReadReg(R12)  returns 0x00000020 (0000ms, 0711ms total)
T3A20 045:441 JLINK_ReadReg(R13 (SP))  returns 0x20000728 (0000ms, 0711ms total)
T3A20 045:441 JLINK_ReadReg(R14)  returns 0x0800063D (0000ms, 0711ms total)
T3A20 045:441 JLINK_ReadReg(R15 (PC))  returns 0x08000642 (0000ms, 0711ms total)
T3A20 045:441 JLINK_ReadReg(XPSR)  returns 0x01000000 (0000ms, 0711ms total)
T3A20 045:441 JLINK_ReadReg(MSP)  returns 0x20000728 (0000ms, 0711ms total)
T3A20 045:441 JLINK_ReadReg(PSP)  returns 0x20001000 (0000ms, 0711ms total)
T3A20 045:441 JLINK_ReadReg(CFBP)  returns 0x00000000 (0000ms, 0711ms total)
T2BAC 045:442 JLINK_ReadMem (0x2000072C, 0x0004 Bytes, ...) -- CPU_ReadMem(64 bytes @ 0x20000700) -- Updating C cache (64 bytes @ 0x20000700) -- Read from C cache (4 bytes @ 0x2000072C) -- Data:  BB 01 00 08  returns 0x00 (0001ms, 0712ms total)
T2BAC 045:443 JLINK_ReadMemU32(0xE0001004, 0x0001 Items, ...) -- CPU_ReadMem(4 bytes @ 0xE0001004) -- Data:  84 1D 00 00  returns 0x01 (0001ms, 0713ms total)
T3A20 049:548 JLINK_ReadMem (0x08000642, 0x0002 Bytes, ...) -- CPU_ReadMem(64 bytes @ 0x08000640) -- Updating C cache (64 bytes @ 0x08000640) -- Read from C cache (2 bytes @ 0x08000642) -- Data:  69 46  returns 0x00 (0002ms, 0715ms total)
T3A20 049:550 JLINK_ReadMem (0x08000644, 0x003C Bytes, ...) -- Read from C cache (60 bytes @ 0x08000644) -- Data:  10 48 FF F7 1E FE 20 21 0E 48 FF F7 A7 FE 15 E0 ...  returns 0x00 (0000ms, 0715ms total)
T3A20 049:550 JLINK_Step() -- Read from C cache (2 bytes @ 0x08000642) -- Simulated  returns 0x00 (0001ms, 0716ms total)
T3A20 049:551 JLINK_ReadReg(R15 (PC))  returns 0x08000644 (0000ms, 0716ms total)
T3A20 049:551 JLINK_ReadReg(XPSR)  returns 0x01000000 (0000ms, 0716ms total)
T3A20 049:551 JLINK_Step() -- Read from C cache (2 bytes @ 0x08000644) -- CPU_ReadMem(64 bytes @ 0x08000680) -- Updating C cache (64 bytes @ 0x08000680) -- Read from C cache (4 bytes @ 0x08000688) -- Simulated  returns 0x00 (0002ms, 0718ms total)
T3A20 049:553 JLINK_ReadReg(R15 (PC))  returns 0x08000646 (0000ms, 0718ms total)
T3A20 049:553 JLINK_ReadReg(XPSR)  returns 0x01000000 (0000ms, 0718ms total)
T3A20 049:553 JLINK_SetBPEx(Addr = 0x0800064A, Type = 0xFFFFFFF2)  returns 0x00000005 (0000ms, 0718ms total)
T3A20 049:553 JLINK_Go() -- CPU_WriteMem(4 bytes @ 0xE0002000) -- CPU_WriteMem(4 bytes @ 0xE0002008) -- CPU_WriteMem(4 bytes @ 0xE0001004) (0003ms, 0721ms total)
T3A20 049:657 JLINK_IsHalted()  returns TRUE (0003ms, 0724ms total)
T3A20 049:660 JLINK_Halt()  returns 0x00 (0000ms, 0721ms total)
T3A20 049:660 JLINK_IsHalted()  returns TRUE (0000ms, 0721ms total)
T3A20 049:660 JLINK_IsHalted()  returns TRUE (0000ms, 0721ms total)
T3A20 049:660 JLINK_IsHalted()  returns TRUE (0000ms, 0721ms total)
T3A20 049:660 JLINK_ReadReg(R15 (PC))  returns 0x0800064A (0000ms, 0721ms total)
T3A20 049:660 JLINK_ReadReg(XPSR)  returns 0x81000000 (0000ms, 0721ms total)
T3A20 049:660 JLINK_ClrBPEx(BPHandle = 0x00000005)  returns 0x00 (0000ms, 0721ms total)
T3A20 049:660 JLINK_ReadMemU32(0xE000ED30, 0x0001 Items, ...) -- CPU_ReadMem(4 bytes @ 0xE000ED30) -- Data:  03 00 00 00  returns 0x01 (0001ms, 0722ms total)
T3A20 049:661 JLINK_ReadMemU32(0xE0001028, 0x0001 Items, ...) -- CPU_ReadMem(4 bytes @ 0xE0001028) -- Data:  00 00 00 00  returns 0x01 (0001ms, 0723ms total)
T3A20 049:662 JLINK_ReadMemU32(0xE0001038, 0x0001 Items, ...) -- CPU_ReadMem(4 bytes @ 0xE0001038) -- Data:  00 02 00 00  returns 0x01 (0001ms, 0724ms total)
T3A20 049:663 JLINK_ReadMemU32(0xE0001048, 0x0001 Items, ...) -- CPU_ReadMem(4 bytes @ 0xE0001048) -- Data:  00 00 00 00  returns 0x01 (0000ms, 0724ms total)
T3A20 049:663 JLINK_ReadMemU32(0xE0001058, 0x0001 Items, ...) -- CPU_ReadMem(4 bytes @ 0xE0001058) -- Data:  00 00 00 00  returns 0x01 (0001ms, 0725ms total)
T3A20 049:664 JLINK_ReadReg(R0)  returns 0x00000008 (0000ms, 0725ms total)
T3A20 049:664 JLINK_ReadReg(R1)  returns 0x20000728 (0000ms, 0725ms total)
T3A20 049:664 JLINK_ReadReg(R2)  returns 0x40011800 (0000ms, 0725ms total)
T3A20 049:664 JLINK_ReadReg(R3)  returns 0x00000080 (0000ms, 0725ms total)
T3A20 049:664 JLINK_ReadReg(R4)  returns 0x00000000 (0000ms, 0725ms total)
T3A20 049:664 JLINK_ReadReg(R5)  returns 0x200000D0 (0000ms, 0725ms total)
T3A20 049:664 JLINK_ReadReg(R6)  returns 0x00000000 (0000ms, 0725ms total)
T3A20 049:664 JLINK_ReadReg(R7)  returns 0x00000000 (0000ms, 0725ms total)
T3A20 049:664 JLINK_ReadReg(R8)  returns 0x00000000 (0000ms, 0725ms total)
T3A20 049:664 JLINK_ReadReg(R9)  returns 0x20000160 (0000ms, 0725ms total)
T3A20 049:664 JLINK_ReadReg(R10)  returns 0x080006B0 (0000ms, 0725ms total)
T3A20 049:664 JLINK_ReadReg(R11)  returns 0x00000000 (0000ms, 0725ms total)
T3A20 049:664 JLINK_ReadReg(R12)  returns 0x00000020 (0000ms, 0725ms total)
T3A20 049:664 JLINK_ReadReg(R13 (SP))  returns 0x20000728 (0000ms, 0725ms total)
T3A20 049:664 JLINK_ReadReg(R14)  returns 0x0800064B (0000ms, 0725ms total)
T3A20 049:664 JLINK_ReadReg(R15 (PC))  returns 0x0800064A (0000ms, 0725ms total)
T3A20 049:664 JLINK_ReadReg(XPSR)  returns 0x81000000 (0000ms, 0725ms total)
T3A20 049:664 JLINK_ReadReg(MSP)  returns 0x20000728 (0000ms, 0725ms total)
T3A20 049:664 JLINK_ReadReg(PSP)  returns 0x20001000 (0000ms, 0725ms total)
T3A20 049:664 JLINK_ReadReg(CFBP)  returns 0x00000000 (0000ms, 0725ms total)
T2BAC 049:664 JLINK_ReadMem (0x2000072C, 0x0004 Bytes, ...) -- CPU_ReadMem(64 bytes @ 0x20000700) -- Updating C cache (64 bytes @ 0x20000700) -- Read from C cache (4 bytes @ 0x2000072C) -- Data:  BB 01 00 08  returns 0x00 (0002ms, 0727ms total)
T2BAC 049:666 JLINK_ReadMemU32(0xE0001004, 0x0001 Items, ...) -- CPU_ReadMem(4 bytes @ 0xE0001004) -- Data:  94 1E 00 00  returns 0x01 (0000ms, 0727ms total)
T2BAC 049:670 JLINK_ReadMem (0x0800064A, 0x0002 Bytes, ...) -- CPU_ReadMem(64 bytes @ 0x08000640) -- Updating C cache (64 bytes @ 0x08000640) -- Read from C cache (2 bytes @ 0x0800064A) -- Data:  20 21  returns 0x00 (0002ms, 0729ms total)
T2BAC 049:672 JLINK_ReadMem (0x0800064C, 0x003C Bytes, ...) -- CPU_ReadMem(64 bytes @ 0x08000680) -- Updating C cache (64 bytes @ 0x08000680) -- Read from C cache (60 bytes @ 0x0800064C) -- Data:  0E 48 FF F7 A7 FE 15 E0 20 21 0B 48 FF F7 A0 FE ...  returns 0x00 (0001ms, 0730ms total)
T3A20 051:843 JLINK_Step() -- Read from C cache (2 bytes @ 0x0800064A) -- Simulated  returns 0x00 (0001ms, 0731ms total)
T3A20 051:844 JLINK_ReadReg(R15 (PC))  returns 0x0800064C (0000ms, 0731ms total)
T3A20 051:844 JLINK_ReadReg(XPSR)  returns 0x01000000 (0000ms, 0731ms total)
T3A20 051:844 JLINK_Step() -- Read from C cache (2 bytes @ 0x0800064C) -- Read from C cache (4 bytes @ 0x08000688) -- Simulated  returns 0x00 (0000ms, 0731ms total)
T3A20 051:844 JLINK_ReadReg(R15 (PC))  returns 0x0800064E (0000ms, 0731ms total)
T3A20 051:844 JLINK_ReadReg(XPSR)  returns 0x01000000 (0000ms, 0731ms total)
T3A20 051:844 JLINK_SetBPEx(Addr = 0x08000652, Type = 0xFFFFFFF2)  returns 0x00000006 (0000ms, 0731ms total)
T3A20 051:844 JLINK_Go() -- CPU_WriteMem(4 bytes @ 0xE0002000) -- CPU_WriteMem(4 bytes @ 0xE0002008) -- CPU_WriteMem(4 bytes @ 0xE0001004) (0003ms, 0734ms total)
T3A20 051:948 JLINK_IsHalted()  returns TRUE (0003ms, 0737ms total)
T3A20 051:951 JLINK_Halt()  returns 0x00 (0000ms, 0734ms total)
T3A20 051:951 JLINK_IsHalted()  returns TRUE (0000ms, 0734ms total)
T3A20 051:951 JLINK_IsHalted()  returns TRUE (0000ms, 0734ms total)
T3A20 051:951 JLINK_IsHalted()  returns TRUE (0000ms, 0734ms total)
T3A20 051:951 JLINK_ReadReg(R15 (PC))  returns 0x08000652 (0000ms, 0734ms total)
T3A20 051:951 JLINK_ReadReg(XPSR)  returns 0x01000000 (0000ms, 0734ms total)
T3A20 051:951 JLINK_ClrBPEx(BPHandle = 0x00000006)  returns 0x00 (0000ms, 0734ms total)
T3A20 051:951 JLINK_ReadMemU32(0xE000ED30, 0x0001 Items, ...) -- CPU_ReadMem(4 bytes @ 0xE000ED30) -- Data:  03 00 00 00  returns 0x01 (0001ms, 0735ms total)
T3A20 051:952 JLINK_ReadMemU32(0xE0001028, 0x0001 Items, ...) -- CPU_ReadMem(4 bytes @ 0xE0001028) -- Data:  00 00 00 00  returns 0x01 (0001ms, 0736ms total)
T3A20 051:953 JLINK_ReadMemU32(0xE0001038, 0x0001 Items, ...) -- CPU_ReadMem(4 bytes @ 0xE0001038) -- Data:  00 02 00 00  returns 0x01 (0001ms, 0737ms total)
T3A20 051:954 JLINK_ReadMemU32(0xE0001048, 0x0001 Items, ...) -- CPU_ReadMem(4 bytes @ 0xE0001048) -- Data:  00 00 00 00  returns 0x01 (0001ms, 0738ms total)
T3A20 051:955 JLINK_ReadMemU32(0xE0001058, 0x0001 Items, ...) -- CPU_ReadMem(4 bytes @ 0xE0001058) -- Data:  00 00 00 00  returns 0x01 (0001ms, 0739ms total)
T3A20 051:956 JLINK_ReadReg(R0)  returns 0x40011800 (0000ms, 0739ms total)
T3A20 051:956 JLINK_ReadReg(R1)  returns 0x00000020 (0000ms, 0739ms total)
T3A20 051:956 JLINK_ReadReg(R2)  returns 0x40011800 (0000ms, 0739ms total)
T3A20 051:956 JLINK_ReadReg(R3)  returns 0x00000080 (0000ms, 0739ms total)
T3A20 051:956 JLINK_ReadReg(R4)  returns 0x00000000 (0000ms, 0739ms total)
T3A20 051:956 JLINK_ReadReg(R5)  returns 0x200000D0 (0000ms, 0739ms total)
T3A20 051:956 JLINK_ReadReg(R6)  returns 0x00000000 (0000ms, 0739ms total)
T3A20 051:956 JLINK_ReadReg(R7)  returns 0x00000000 (0000ms, 0739ms total)
T3A20 051:956 JLINK_ReadReg(R8)  returns 0x00000000 (0000ms, 0739ms total)
T3A20 051:956 JLINK_ReadReg(R9)  returns 0x20000160 (0000ms, 0739ms total)
T3A20 051:956 JLINK_ReadReg(R10)  returns 0x080006B0 (0000ms, 0739ms total)
T3A20 051:956 JLINK_ReadReg(R11)  returns 0x00000000 (0000ms, 0739ms total)
T3A20 051:956 JLINK_ReadReg(R12)  returns 0x00000020 (0000ms, 0739ms total)
T3A20 051:956 JLINK_ReadReg(R13 (SP))  returns 0x20000728 (0000ms, 0739ms total)
T3A20 051:956 JLINK_ReadReg(R14)  returns 0x08000653 (0000ms, 0739ms total)
T3A20 051:956 JLINK_ReadReg(R15 (PC))  returns 0x08000652 (0000ms, 0739ms total)
T3A20 051:956 JLINK_ReadReg(XPSR)  returns 0x01000000 (0000ms, 0739ms total)
T3A20 051:956 JLINK_ReadReg(MSP)  returns 0x20000728 (0001ms, 0740ms total)
T3A20 051:957 JLINK_ReadReg(PSP)  returns 0x20001000 (0000ms, 0740ms total)
T3A20 051:957 JLINK_ReadReg(CFBP)  returns 0x00000000 (0000ms, 0740ms total)
T2BAC 051:957 JLINK_ReadMem (0x2000072C, 0x0004 Bytes, ...) -- CPU_ReadMem(64 bytes @ 0x20000700) -- Updating C cache (64 bytes @ 0x20000700) -- Read from C cache (4 bytes @ 0x2000072C) -- Data:  BB 01 00 08  returns 0x00 (0001ms, 0741ms total)
T2BAC 051:959 JLINK_ReadMemU32(0xE0001004, 0x0001 Items, ...) -- CPU_ReadMem(4 bytes @ 0xE0001004) -- Data:  A1 1E 00 00  returns 0x01 (0000ms, 0741ms total)
T2BAC 051:965 JLINK_ReadMem (0x08000652, 0x0002 Bytes, ...) -- CPU_ReadMem(64 bytes @ 0x08000640) -- Updating C cache (64 bytes @ 0x08000640) -- Read from C cache (2 bytes @ 0x08000652) -- Data:  15 E0  returns 0x00 (0001ms, 0742ms total)
T2BAC 051:966 JLINK_ReadMem (0x08000654, 0x003C Bytes, ...) -- CPU_ReadMem(64 bytes @ 0x08000680) -- Updating C cache (64 bytes @ 0x08000680) -- Read from C cache (60 bytes @ 0x08000654) -- Data:  20 21 0B 48 FF F7 A0 FE 20 21 0A 48 FF F7 9E FE ...  returns 0x00 (0001ms, 0743ms total)
T3A20 055:050 JLINK_Step() -- Read from C cache (2 bytes @ 0x08000652) -- Simulated  returns 0x00 (0002ms, 0745ms total)
T3A20 055:052 JLINK_ReadReg(R15 (PC))  returns 0x08000680 (0000ms, 0745ms total)
T3A20 055:052 JLINK_ReadReg(XPSR)  returns 0x01000000 (0000ms, 0745ms total)
T3A20 055:052 JLINK_ReadReg(R0)  returns 0x40011800 (0000ms, 0745ms total)
T3A20 055:052 JLINK_ReadReg(R1)  returns 0x00000020 (0000ms, 0745ms total)
T3A20 055:052 JLINK_ReadReg(R2)  returns 0x40011800 (0000ms, 0745ms total)
T3A20 055:052 JLINK_ReadReg(R3)  returns 0x00000080 (0000ms, 0745ms total)
T3A20 055:052 JLINK_ReadReg(R4)  returns 0x00000000 (0000ms, 0745ms total)
T3A20 055:052 JLINK_ReadReg(R5)  returns 0x200000D0 (0000ms, 0745ms total)
T3A20 055:052 JLINK_ReadReg(R6)  returns 0x00000000 (0000ms, 0745ms total)
